
T0E4C 000:379 SEGGER J-Link V4.96d Log File (0062ms, 0376ms total)
T0E4C 000:379 DLL Compiled: Jan 29 2015 11:45:37 (0062ms, 0376ms total)
T0E4C 000:379 Logging started @ 2016-04-08 14:49 (0062ms, 0376ms total)
T0E4C 000:441 JLINK_SetWarnOutHandler(...) (0000ms, 0376ms total)
T0E4C 000:441 JLINK_OpenEx(...)
Firmware: J-Link V9 compiled Jan 29 2015 11:26:22
Hardware: V9.20
Feature(s): GDB, RDI, FlashBP, FlashDL, JFlash  returns O.K. (0290ms, 0666ms total)
T0E4C 000:732 JLINK_SetErrorOutHandler(...) (0000ms, 0666ms total)
T0E4C 000:732 JLINK_ExecCommand("ProjectFile = "C:\Users\T\Desktop\YH_SingleChannel_port\Project\JLinkSettings.ini"", ...)  returns 0x00 (0001ms, 0667ms total)
T0E4C 000:733 JLINK_ExecCommand("Device = STM32F427IG", ...)Device "STM32F427IG" selected.  returns 0x00 (0003ms, 0670ms total)
T0E4C 000:736 JLINK_ExecCommand("DisableConnectionTimeout", ...)  returns 0x01 (0000ms, 0670ms total)
T0E4C 000:736 JLINK_GetHardwareVersion()  returns 0x16760 (0000ms, 0670ms total)
T0E4C 000:736 JLINK_GetDLLVersion()  returns 49604 (0000ms, 0670ms total)
T0E4C 000:736 JLINK_GetFirmwareString(...) (0000ms, 0670ms total)
T0E4C 000:737 JLINK_GetDLLVersion()  returns 49604 (0000ms, 0670ms total)
T0E4C 000:737 JLINK_GetCompileDateTime() (0000ms, 0670ms total)
T0E4C 000:737 JLINK_GetFirmwareString(...) (0000ms, 0670ms total)
T0E4C 000:738 JLINK_GetHardwareVersion()  returns 0x16760 (0000ms, 0670ms total)
T0E4C 000:740 JLINK_TIF_Select(JLINKARM_TIF_SWD)  returns 0x00 (0003ms, 0673ms total)
T0E4C 000:743 JLINK_SetSpeed(50000) (0000ms, 0673ms total)
T0E4C 000:744 JLINK_GetId() >0x108 TIF>Found SWD-DP with ID 0x2BA01477 >0x0D TIF> >0x28 TIF> >0x0D TIF> >0x28 TIF> >0x0D TIF> >0x21 TIF> >0x0D TIF> >0x28 TIF> >0x0D TIF> >0x28 TIF> >0x0D TIF> >0x28 TIF> >0x0D TIF> >0x21 TIF> >0x0D TIF> >0x21 TIF> >0x0D TIF> >0x28 TIF> >0x0D TIF> >0x21 TIF> >0x0D TIF> >0x21 TIF> >0x0D TIF> >0x28 TIF> >0x0D TIF> >0x21 TIF> >0x0D TIF> >0x21 TIF> >0x108 TIF>Found SWD-DP with ID 0x2BA01477 >0x0D TIF> >0x21 TIF> >0x0D TIF> >0x28 TIF> >0x0D TIF> >0x28 TIF> >0x0D TIF> >0x21 TIF>
 >0x0D TIF> >0x28 TIF> >0x0D TIF> >0x21 TIF> >0x0D TIF> >0x21 TIF> >0x0D TIF> >0x21 TIF> >0x0D TIF> >0x21 TIF> >0x0D TIF> >0x28 TIF> >0x0D TIF> >0x28 TIF> >0x0D TIF> >0x21 TIF> >0x0D TIF> >0x28 TIF> >0x0D TIF> >0x28 TIF> >0x0D TIF> >0x28 TIF> >0x0D TIF> >0x21 TIF> >0x0D TIF> >0x21 TIF> >0x0D TIF> >0x28 TIF> >0x0D TIF> >0x21 TIF> >0x0D TIF> >0x21 TIF>Found Cortex-M4 r0p1, Little endian. -- CPU_WriteMem(4 bytes @ 0xE0002000) -- CPU_ReadMem(4 bytes @ 0xE000EDF0) -- CPU_ReadMem(4 bytes @ 0xE0002000)
FPUnit: 6 code (BP) slots and 2 literal slots -- CPU_ReadMem(4 bytes @ 0xE000EDFC) -- CPU_ReadMem(4 bytes @ 0xE0001000) -- CPU_WriteMem(4 bytes @ 0xE0001000) -- CPU_ReadMem(4 bytes @ 0xE000ED88) -- CPU_WriteMem(4 bytes @ 0xE000ED88) -- CPU_ReadMem(4 bytes @ 0xE000ED88) -- CPU_WriteMem(4 bytes @ 0xE000ED88) -- CPU_ReadMem(4 bytes @ 0xE00FF010)TPIU fitted. -- CPU_ReadMem(4 bytes @ 0xE00FF014)ETM fitted. -- CPU_ReadMem(4 bytes @ 0xE00FF018) >0x0D TIF> >0x21 TIF>  returns 0x2BA01477 (0075ms, 0749ms total)
T0E4C 000:819 JLINK_GetDLLVersion()  returns 49604 (0000ms, 0749ms total)
T0E4C 000:819 JLINK_CORE_GetFound()  returns 0xE0000FF (0000ms, 0749ms total)
T0E4C 000:819 JLINK_GetDebugInfo(0x100) -- Value=0xE00FF003  returns 0x00 (0000ms, 0749ms total)
T0E4C 000:820 JLINK_ReadMem (0xE00FF000, 0x0020 Bytes, ...) -- CPU is running -- CPU_ReadMem(32 bytes @ 0xE00FF000) - Data: 03 F0 F0 FF 03 20 F0 FF 03 30 F0 FF 03 10 F0 FF ...  returns 0x00 (0003ms, 0752ms total)
T0E4C 000:823 JLINK_ReadMem (0xE000EFF0, 0x0010 Bytes, ...) -- CPU is running -- CPU_ReadMem(16 bytes @ 0xE000EFF0) - Data: 0D 00 00 00 E0 00 00 00 05 00 00 00 B1 00 00 00  returns 0x00 (0001ms, 0753ms total)
T0E4C 000:824 JLINK_ReadMem (0xE000EFD0, 0x0020 Bytes, ...) -- CPU is running -- CPU_ReadMem(32 bytes @ 0xE000EFD0) - Data: 04 00 00 00 00 00 00 00 00 00 00 00 00 00 00 00 ...  returns 0x00 (0001ms, 0754ms total)
T0E4C 000:825 JLINK_ReadMem (0xE0001FF0, 0x0010 Bytes, ...) -- CPU is running -- CPU_ReadMem(16 bytes @ 0xE0001FF0) - Data: 0D 00 00 00 E0 00 00 00 05 00 00 00 B1 00 00 00  returns 0x00 (0001ms, 0755ms total)
T0E4C 000:826 JLINK_ReadMem (0xE0001FD0, 0x0020 Bytes, ...) -- CPU is running -- CPU_ReadMem(32 bytes @ 0xE0001FD0) - Data: 04 00 00 00 00 00 00 00 00 00 00 00 00 00 00 00 ...  returns 0x00 (0001ms, 0756ms total)
T0E4C 000:827 JLINK_ReadMem (0xE0002FF0, 0x0010 Bytes, ...) -- CPU is running -- CPU_ReadMem(16 bytes @ 0xE0002FF0) - Data: 0D 00 00 00 E0 00 00 00 05 00 00 00 B1 00 00 00  returns 0x00 (0001ms, 0757ms total)
T0E4C 000:828 JLINK_ReadMem (0xE0002FD0, 0x0020 Bytes, ...) -- CPU is running -- CPU_ReadMem(32 bytes @ 0xE0002FD0) - Data: 04 00 00 00 00 00 00 00 00 00 00 00 00 00 00 00 ...  returns 0x00 (0001ms, 0758ms total)
T0E4C 000:829 JLINK_ReadMem (0xE0000FF0, 0x0010 Bytes, ...) -- CPU is running -- CPU_ReadMem(16 bytes @ 0xE0000FF0) - Data: 0D 00 00 00 E0 00 00 00 05 00 00 00 B1 00 00 00  returns 0x00 (0001ms, 0759ms total)
T0E4C 000:830 JLINK_ReadMem (0xE0000FD0, 0x0020 Bytes, ...) -- CPU is running -- CPU_ReadMem(32 bytes @ 0xE0000FD0) - Data: 04 00 00 00 00 00 00 00 00 00 00 00 00 00 00 00 ...  returns 0x00 (0001ms, 0760ms total)
T0E4C 000:831 JLINK_ReadMem (0xE0040FF0, 0x0010 Bytes, ...) -- CPU is running -- CPU_ReadMem(16 bytes @ 0xE0040FF0) - Data: 0D 00 00 00 90 00 00 00 05 00 00 00 B1 00 00 00  returns 0x00 (0001ms, 0761ms total)
T0E4C 000:832 JLINK_ReadMem (0xE0040FD0, 0x0020 Bytes, ...) -- CPU is running -- CPU_ReadMem(32 bytes @ 0xE0040FD0) - Data: 04 00 00 00 00 00 00 00 00 00 00 00 00 00 00 00 ...  returns 0x00 (0001ms, 0762ms total)
T0E4C 000:833 JLINK_ReadMem (0xE0041FF0, 0x0010 Bytes, ...) -- CPU is running -- CPU_ReadMem(16 bytes @ 0xE0041FF0) - Data: 0D 00 00 00 90 00 00 00 05 00 00 00 B1 00 00 00  returns 0x00 (0001ms, 0763ms total)
T0E4C 000:834 JLINK_ReadMem (0xE0041FD0, 0x0020 Bytes, ...) -- CPU is running -- CPU_ReadMem(32 bytes @ 0xE0041FD0) - Data: 04 00 00 00 00 00 00 00 00 00 00 00 00 00 00 00 ...  returns 0x00 (0001ms, 0764ms total)
T0E4C 000:835 JLINK_ReadMemU32(0xE000EF40, 0x0001 Items, ...) -- CPU is running -- CPU_ReadMem(4 bytes @ 0xE000EF40) - Data: 21 00 11 10  returns 0x01 (0002ms, 0766ms total)
T0E4C 000:837 JLINK_ReadMemU32(0xE000EF44, 0x0001 Items, ...) -- CPU is running -- CPU_ReadMem(4 bytes @ 0xE000EF44) - Data: 11 00 00 11  returns 0x01 (0001ms, 0767ms total)
T0E4C 000:838 JLINK_ReadMemU32(0xE000ED00, 0x0001 Items, ...) -- CPU is running -- CPU_ReadMem(4 bytes @ 0xE000ED00) - Data: 41 C2 0F 41  returns 0x01 (0001ms, 0768ms total)
T0E4C 000:839 JLINK_SetResetType(JLINKARM_RESET_TYPE_NORMAL)  returns JLINKARM_RESET_TYPE_NORMAL (0000ms, 0768ms total)
T0E4C 000:839 JLINK_Reset() -- CPU is running -- CPU_WriteMem(4 bytes @ 0xE000EDF0) -- CPU is running -- CPU_WriteMem(4 bytes @ 0xE000EDFC) >0x35 TIF> -- CPU is running -- CPU_WriteMem(4 bytes @ 0xE000ED0C) -- CPU is running -- CPU_ReadMem(4 bytes @ 0xE000EDF0) -- CPU is running -- CPU_ReadMem(4 bytes @ 0xE000EDF0) -- CPU is running -- CPU_ReadMem(4 bytes @ 0xE000EDF0) -- CPU is running -- CPU_WriteMem(4 bytes @ 0xE000EDF0) -- CPU is running -- CPU_WriteMem(4 bytes @ 0xE000EDFC) -- CPU is running
 -- CPU_ReadMem(4 bytes @ 0xE000EDF0)Core did not halt after reset, trying to disable WDT. -- CPU is running -- CPU_WriteMem(4 bytes @ 0xE000EDF0) -- CPU is running -- CPU_WriteMem(4 bytes @ 0xE000EDFC) >0x35 TIF> -- CPU is running -- CPU_WriteMem(4 bytes @ 0xE000ED0C) -- CPU is running -- CPU_ReadMem(4 bytes @ 0xE000EDF0)SYSRESETREQ has confused core. Trying to reconnect and use VECTRESET. >0x108 TIF>Found SWD-DP with ID 0x2BA01477 >0x0D TIF> >0x21 TIF> >0x0D TIF> >0x28 TIF> >0x0D TIF> >0x28 TIF>
 >0x0D TIF> >0x21 TIF> >0x0D TIF> >0x28 TIF> >0x0D TIF> >0x28 TIF> >0x0D TIF> >0x28 TIF> >0x0D TIF> >0x21 TIF> >0x0D TIF> >0x21 TIF> >0x0D TIF> >0x28 TIF> >0x0D TIF> >0x21 TIF> >0x0D TIF> >0x21 TIF>Found Cortex-M4 r0p1, Little endian. -- CPU is running -- CPU_WriteMem(4 bytes @ 0xE000EDF0) -- CPU is running -- CPU_WriteMem(4 bytes @ 0xE000EDFC) >0x35 TIF> -- CPU is running -- CPU_WriteMem(4 bytes @ 0xE000ED0C) -- CPU is running -- CPU_ReadMem(4 bytes @ 0xE000EDF0) -- CPU is running
 -- CPU_ReadMem(4 bytes @ 0xE000EDF0) -- CPU is running -- CPU_WriteMem(4 bytes @ 0xE000EDF0) -- CPU is running -- CPU_ReadMem(4 bytes @ 0x400F2000) -- CPU is running -- CPU_ReadMem(4 bytes @ 0x40040000) -- CPU is running -- CPU_WriteMem(4 bytes @ 0xE000EDFC) -- CPU_WriteMem(4 bytes @ 0xE0002000) -- CPU_ReadMem(4 bytes @ 0xE000EDFC) -- CPU_ReadMem(4 bytes @ 0xE0001000) -- CPU_WriteMem(4 bytes @ 0xE0001000) (0056ms, 0824ms total)
T0E4C 000:895 JLINK_ReadReg(R15 (PC))  returns 0x080001C0 (0000ms, 0824ms total)
T0E4C 000:895 JLINK_ReadReg(XPSR)  returns 0x01000000 (0000ms, 0824ms total)
T0E4C 000:895 JLINK_Halt()  returns 0x00 (0000ms, 0824ms total)
T0E4C 000:895 JLINK_IsHalted()  returns TRUE (0000ms, 0824ms total)
T0E4C 000:895 JLINK_ReadMemU32(0xE000EDF0, 0x0001 Items, ...) -- CPU_ReadMem(4 bytes @ 0xE000EDF0) - Data: 03 00 03 00  returns 0x01 (0001ms, 0825ms total)
T0E4C 000:896 JLINK_WriteU32(0xE000EDF0, 0xA05F0003) -- CPU_WriteMem(4 bytes @ 0xE000EDF0)  returns 0x00 (0001ms, 0826ms total)
T0E4C 000:897 JLINK_WriteU32(0xE000EDFC, 0x01000000) -- CPU_WriteMem(4 bytes @ 0xE000EDFC)  returns 0x00 (0001ms, 0827ms total)
T0E4C 000:900 JLINK_GetHWStatus(...)  returns 0x00 (0000ms, 0827ms total)
T0E4C 000:901 JLINK_GetNumBPUnits(Type = 0xFFFFFF00)  returns 0x06 (0001ms, 0828ms total)
T0E4C 000:902 JLINK_GetNumBPUnits(Type = 0xF0)  returns 0x2000 (0000ms, 0828ms total)
T0E4C 000:902 JLINK_GetNumWPUnits()  returns 0x04 (0000ms, 0828ms total)
T0E4C 000:903 JLINK_GetSpeed()  returns 0x2EE0 (0000ms, 0828ms total)
T0E4C 000:904 JLINK_ReadMemU32(0xE000E004, 0x0001 Items, ...) -- CPU_ReadMem(4 bytes @ 0xE000E004) - Data: 02 00 00 00  returns 0x01 (0001ms, 0829ms total)
T0E4C 000:905 JLINK_ReadMemU32(0xE000E004, 0x0001 Items, ...) -- CPU_ReadMem(4 bytes @ 0xE000E004) - Data: 02 00 00 00  returns 0x01 (0001ms, 0830ms total)
T0E4C 000:906 JLINK_WriteMem(0xE0001000, 0x001C Bytes, ...) - Data: 01 00 00 00 00 00 00 00 00 00 00 00 00 00 00 00 ... -- CPU_WriteMem(28 bytes @ 0xE0001000)  returns 0x1C (0003ms, 0833ms total)
T0E4C 000:909 JLINK_ReadMem (0xE0001000, 0x001C Bytes, ...) -- CPU_ReadMem(28 bytes @ 0xE0001000) - Data: 01 00 00 40 00 00 00 00 00 00 00 00 00 00 00 00 ...  returns 0x00 (0001ms, 0834ms total)
T0E4C 000:910 JLINK_ReadReg(R15 (PC))  returns 0x080001C0 (0000ms, 0834ms total)
T0E4C 000:910 JLINK_ReadReg(XPSR)  returns 0x01000000 (0000ms, 0834ms total)
T0E4C 001:455 JLINK_SetResetType(JLINKARM_RESET_TYPE_NORMAL)  returns JLINKARM_RESET_TYPE_NORMAL (0001ms, 0835ms total)
T0E4C 001:456 JLINK_Reset() -- CPU_WriteMem(4 bytes @ 0xE000EDF0) -- CPU_WriteMem(4 bytes @ 0xE000EDFC) >0x9F TIF> -- CPU_WriteMem(4 bytes @ 0xE000ED0C) -- CPU_ReadMem(4 bytes @ 0xE000EDF0) -- CPU_ReadMem(4 bytes @ 0xE000EDF0) -- CPU_ReadMem(4 bytes @ 0xE000EDF0) -- CPU_WriteMem(4 bytes @ 0xE000EDF0) -- CPU_WriteMem(4 bytes @ 0xE000EDFC) -- CPU is running -- CPU_ReadMem(4 bytes @ 0xE000EDF0) -- CPU_WriteMem(4 bytes @ 0xE0002000) -- CPU_ReadMem(4 bytes @ 0xE000EDFC) -- CPU_ReadMem(4 bytes @ 0xE0001000)
 (0021ms, 0856ms total)
T0E4C 001:478 JLINK_ReadReg(R15 (PC))  returns 0x080001C0 (0000ms, 0856ms total)
T0E4C 001:478 JLINK_ReadReg(XPSR)  returns 0x01000000 (0000ms, 0856ms total)
T0E4C 001:479 JLINK_ReadMem (0x080001C0, 0x003C Bytes, ...) -- CPU_ReadMem(64 bytes @ 0x080001C0) -- Updating C cache (64 bytes @ 0x080001C0) -- Read from C cache (60 bytes @ 0x080001C0) - Data: 06 48 80 47 06 48 00 47 FE E7 FE E7 FE E7 FE E7 ...  returns 0x00 (0034ms, 0890ms total)
T0E4C 004:837 JLINK_ReadMem (0x00000000, 0x00FF Bytes, ...) -- CPU_ReadMem(4 bytes @ 0x00000004) -- CPU_ReadMem(256 bytes @ 0x08000000) -- Updating C cache (256 bytes @ 0x08000000) -- Read from C cache (255 bytes @ 0x08000000) - Data: B8 9B 00 20 C1 01 00 08 19 59 00 08 81 2F 00 08 ...  returns 0x00 (0024ms, 0914ms total)
T0E4C 005:043 JLINK_ReadMem (0x00000000, 0x0104 Bytes, ...) -- CPU_ReadMem(64 bytes @ 0x08000100) -- Updating C cache (64 bytes @ 0x08000100) -- Read from C cache (260 bytes @ 0x08000000) - Data: B8 9B 00 20 C1 01 00 08 19 59 00 08 81 2F 00 08 ...  returns 0x00 (0002ms, 0916ms total)
T0E4C 006:246 JLINK_ReadMem (0x20000008, 0x0004 Bytes, ...) -- CPU_ReadMem(64 bytes @ 0x20000000) -- Updating C cache (64 bytes @ 0x20000000) -- Read from C cache (4 bytes @ 0x20000008) - Data: 00 00 00 00  returns 0x00 (0002ms, 0918ms total)
T0E4C 006:252 JLINK_ReadMem (0x2000000C, 0x0004 Bytes, ...) -- Read from C cache (4 bytes @ 0x2000000C) - Data: 00 00 00 00  returns 0x00 (0000ms, 0918ms total)
T0E4C 006:256 JLINK_ReadMem (0x20000010, 0x0004 Bytes, ...) -- Read from C cache (4 bytes @ 0x20000010) - Data: 00 00 00 00  returns 0x00 (0000ms, 0918ms total)
T0E4C 006:260 JLINK_ReadMem (0x20000014, 0x0004 Bytes, ...) -- Read from C cache (4 bytes @ 0x20000014) - Data: 00 00 00 00  returns 0x00 (0001ms, 0919ms total)
T0E4C 006:266 JLINK_ReadMem (0x20001100, 0x0001 Bytes, ...) -- CPU_ReadMem(64 bytes @ 0x20001100) -- Updating C cache (64 bytes @ 0x20001100) -- Read from C cache (1 bytes @ 0x20001100) - Data: 00  returns 0x00 (0001ms, 0920ms total)
T1EA70 006:431 JLINK_SetBPEx(Addr = 0x0800BD78, Type = 0xFFFFFFF2)  returns 0x00000001 (0000ms, 0920ms total)
T1EA70 006:431 JLINK_SetBPEx(Addr = 0x080075BE, Type = 0xFFFFFFF2)  returns 0x00000002 (0000ms, 0920ms total)
T1EA70 006:431 JLINK_Go() -- CPU_WriteMem(4 bytes @ 0xE0002000) -- CPU_WriteMem(4 bytes @ 0xE0002000) -- CPU_WriteMem(4 bytes @ 0xE0002008) -- CPU_WriteMem(4 bytes @ 0xE000200C) -- CPU_WriteMem(4 bytes @ 0xE0002010) -- CPU_WriteMem(4 bytes @ 0xE0002014) -- CPU_WriteMem(4 bytes @ 0xE0002018) -- CPU_WriteMem(4 bytes @ 0xE000201C) -- CPU_WriteMem(4 bytes @ 0xE0001004) (0006ms, 0926ms total)
T1EA70 006:537 JLINK_IsHalted()  returns TRUE (0002ms, 0928ms total)
T1EA70 006:539 JLINK_Halt()  returns 0x00 (0000ms, 0926ms total)
T1EA70 006:539 JLINK_IsHalted()  returns TRUE (0000ms, 0926ms total)
T1EA70 006:539 JLINK_IsHalted()  returns TRUE (0000ms, 0926ms total)
T1EA70 006:539 JLINK_IsHalted()  returns TRUE (0000ms, 0926ms total)
T1EA70 006:539 JLINK_ReadReg(R15 (PC))  returns 0x0800BD78 (0001ms, 0927ms total)
T1EA70 006:540 JLINK_ReadReg(XPSR)  returns 0x61000000 (0000ms, 0927ms total)
T1EA70 006:540 JLINK_ClrBPEx(BPHandle = 0x00000001)  returns 0x00 (0000ms, 0927ms total)
T1EA70 006:540 JLINK_ClrBPEx(BPHandle = 0x00000002)  returns 0x00 (0000ms, 0927ms total)
T1EA70 006:540 JLINK_ReadMemU32(0xE000ED30, 0x0001 Items, ...) -- CPU_ReadMem(4 bytes @ 0xE000ED30) - Data: 03 00 00 00  returns 0x01 (0001ms, 0928ms total)
T1EA70 006:541 JLINK_ReadMemU32(0xE0001028, 0x0001 Items, ...) -- CPU_ReadMem(4 bytes @ 0xE0001028) - Data: 00 00 00 00  returns 0x01 (0034ms, 0962ms total)
T1EA70 006:575 JLINK_ReadMemU32(0xE0001038, 0x0001 Items, ...) -- CPU_ReadMem(4 bytes @ 0xE0001038) - Data: 00 02 00 00  returns 0x01 (0001ms, 0963ms total)
T1EA70 006:576 JLINK_ReadMemU32(0xE0001048, 0x0001 Items, ...) -- CPU_ReadMem(4 bytes @ 0xE0001048) - Data: 00 00 00 00  returns 0x01 (0002ms, 0965ms total)
T1EA70 006:578 JLINK_ReadMemU32(0xE0001058, 0x0001 Items, ...) -- CPU_ReadMem(4 bytes @ 0xE0001058) - Data: 00 00 00 00  returns 0x01 (0001ms, 0966ms total)
T1EA70 006:580 JLINK_ReadReg(R0)  returns 0x0800BD79 (0000ms, 0966ms total)
T1EA70 006:580 JLINK_ReadReg(R1)  returns 0x20009BB8 (0000ms, 0966ms total)
T1EA70 006:580 JLINK_ReadReg(R2)  returns 0x00000000 (0000ms, 0966ms total)
T1EA70 006:580 JLINK_ReadReg(R3)  returns 0x0800A7BB (0000ms, 0966ms total)
T1EA70 006:580 JLINK_ReadReg(R4)  returns 0x08070A64 (0000ms, 0966ms total)
T1EA70 006:580 JLINK_ReadReg(R5)  returns 0x08070A64 (0000ms, 0966ms total)
T1EA70 006:580 JLINK_ReadReg(R6)  returns 0x00000000 (0000ms, 0966ms total)
T1EA70 006:580 JLINK_ReadReg(R7)  returns 0x00000000 (0000ms, 0966ms total)
T1EA70 006:580 JLINK_ReadReg(R8)  returns 0x00000000 (0001ms, 0967ms total)
T1EA70 006:581 JLINK_ReadReg(R9)  returns 0x00000000 (0000ms, 0967ms total)
T1EA70 006:581 JLINK_ReadReg(R10)  returns 0x00000000 (0000ms, 0967ms total)
T1EA70 006:581 JLINK_ReadReg(R11)  returns 0x00000000 (0000ms, 0967ms total)
T1EA70 006:581 JLINK_ReadReg(R12)  returns 0x00000000 (0000ms, 0967ms total)
T1EA70 006:581 JLINK_ReadReg(R13 (SP))  returns 0x20009BB8 (0000ms, 0967ms total)
T1EA70 006:581 JLINK_ReadReg(R14)  returns 0x08000FA1 (0000ms, 0967ms total)
T1EA70 006:581 JLINK_ReadReg(R15 (PC))  returns 0x0800BD78 (0000ms, 0967ms total)
T1EA70 006:581 JLINK_ReadReg(XPSR)  returns 0x61000000 (0001ms, 0968ms total)
T1EA70 006:582 JLINK_ReadReg(MSP)  returns 0x20009BB8 (0000ms, 0968ms total)
T1EA70 006:582 JLINK_ReadReg(PSP)  returns 0x00000000 (0000ms, 0968ms total)
T1EA70 006:582 JLINK_ReadReg(CFBP)  returns 0x00000000 (0000ms, 0968ms total)
T1EA70 006:582 JLINK_ReadReg(FPSCR)  returns 0x00000000 (0003ms, 0971ms total)
T1EA70 006:585 JLINK_ReadReg(FPS0)  returns 0x00000000 (0000ms, 0971ms total)
T1EA70 006:585 JLINK_ReadReg(FPS1)  returns 0x00000000 (0000ms, 0971ms total)
T1EA70 006:585 JLINK_ReadReg(FPS2)  returns 0x00000000 (0000ms, 0971ms total)
T1EA70 006:585 JLINK_ReadReg(FPS3)  returns 0x00000000 (0000ms, 0971ms total)
T1EA70 006:585 JLINK_ReadReg(FPS4)  returns 0x00000000 (0000ms, 0971ms total)
T1EA70 006:585 JLINK_ReadReg(FPS5)  returns 0x00000000 (0000ms, 0971ms total)
T1EA70 006:585 JLINK_ReadReg(FPS6)  returns 0x00000000 (0000ms, 0971ms total)
T1EA70 006:585 JLINK_ReadReg(FPS7)  returns 0x00000000 (0000ms, 0971ms total)
T1EA70 006:585 JLINK_ReadReg(FPS8)  returns 0x00000000 (0001ms, 0972ms total)
T1EA70 006:586 JLINK_ReadReg(FPS9)  returns 0x00000000 (0000ms, 0972ms total)
T1EA70 006:586 JLINK_ReadReg(FPS10)  returns 0x00000000 (0000ms, 0972ms total)
T1EA70 006:586 JLINK_ReadReg(FPS11)  returns 0x00000000 (0000ms, 0972ms total)
T1EA70 006:586 JLINK_ReadReg(FPS12)  returns 0x00000000 (0000ms, 0972ms total)
T1EA70 006:586 JLINK_ReadReg(FPS13)  returns 0x00000000 (0000ms, 0972ms total)
T1EA70 006:586 JLINK_ReadReg(FPS14)  returns 0x00000000 (0000ms, 0972ms total)
T1EA70 006:586 JLINK_ReadReg(FPS15)  returns 0x00000000 (0000ms, 0972ms total)
T1EA70 006:586 JLINK_ReadReg(FPS16)  returns 0x00000000 (0000ms, 0972ms total)
T1EA70 006:586 JLINK_ReadReg(FPS17)  returns 0x00000000 (0001ms, 0973ms total)
T1EA70 006:587 JLINK_ReadReg(FPS18)  returns 0x00000000 (0000ms, 0973ms total)
T1EA70 006:587 JLINK_ReadReg(FPS19)  returns 0x00000000 (0000ms, 0973ms total)
T1EA70 006:587 JLINK_ReadReg(FPS20)  returns 0x00000000 (0000ms, 0973ms total)
T1EA70 006:587 JLINK_ReadReg(FPS21)  returns 0x00000000 (0000ms, 0973ms total)
T1EA70 006:587 JLINK_ReadReg(FPS22)  returns 0x00000000 (0000ms, 0973ms total)
T1EA70 006:587 JLINK_ReadReg(FPS23)  returns 0x00000000 (0000ms, 0973ms total)
T1EA70 006:587 JLINK_ReadReg(FPS24)  returns 0x00000000 (0000ms, 0973ms total)
T1EA70 006:587 JLINK_ReadReg(FPS25)  returns 0x00000000 (0001ms, 0974ms total)
T1EA70 006:588 JLINK_ReadReg(FPS26)  returns 0x00000000 (0000ms, 0974ms total)
T1EA70 006:588 JLINK_ReadReg(FPS27)  returns 0x00000000 (0000ms, 0974ms total)
T1EA70 006:588 JLINK_ReadReg(FPS28)  returns 0x00000000 (0000ms, 0974ms total)
T1EA70 006:588 JLINK_ReadReg(FPS29)  returns 0x00000000 (0000ms, 0974ms total)
T1EA70 006:588 JLINK_ReadReg(FPS30)  returns 0x00000000 (0000ms, 0974ms total)
T1EA70 006:588 JLINK_ReadReg(FPS31)  returns 0x00000000 (0000ms, 0974ms total)
T0E4C 006:601 JLINK_ReadMem (0x0800BD78, 0x003C Bytes, ...) -- CPU_ReadMem(128 bytes @ 0x0800BD40) -- Updating C cache (128 bytes @ 0x0800BD40) -- Read from C cache (60 bytes @ 0x0800BD78) - Data: FF F7 7A F9 F9 F7 B4 F8 F8 F7 70 FE FC F7 22 F9 ...  returns 0x00 (0001ms, 0975ms total)
T1EA70 007:954 JLINK_SetBPEx(Addr = 0x080075BE, Type = 0xFFFFFFF2)  returns 0x00000003 (0000ms, 0975ms total)
T1EA70 007:954 JLINK_Go() -- CPU_WriteMem(4 bytes @ 0xE0002000) -- CPU_WriteMem(4 bytes @ 0xE0002008) -- CPU_WriteMem(4 bytes @ 0xE000200C) (0003ms, 0978ms total)
T1EA70 008:062 JLINK_IsHalted()  returns FALSE (0001ms, 0979ms total)
T1EA70 008:163 JLINK_IsHalted()  returns FALSE (0001ms, 0979ms total)
T1EA70 008:264 JLINK_IsHalted()  returns FALSE (0001ms, 0979ms total)
T1EA70 008:365 JLINK_IsHalted()  returns FALSE (0001ms, 0979ms total)
T1EA70 008:466 JLINK_IsHalted()  returns FALSE (0000ms, 0978ms total)
T1EA70 008:566 JLINK_IsHalted()  returns FALSE (0001ms, 0979ms total)
T1EA70 008:667 JLINK_IsHalted()  returns FALSE (0001ms, 0979ms total)
T1EA70 008:768 JLINK_IsHalted()  returns FALSE (0001ms, 0979ms total)
T1EA70 008:869 JLINK_IsHalted()  returns FALSE (0001ms, 0979ms total)
T1EA70 008:970 JLINK_Halt()  returns 0x00 (0002ms, 0980ms total)
T1EA70 008:972 JLINK_IsHalted()  returns TRUE (0000ms, 0980ms total)
T1EA70 008:972 JLINK_IsHalted()  returns TRUE (0001ms, 0981ms total)
T1EA70 008:973 JLINK_IsHalted()  returns TRUE (0000ms, 0980ms total)
T1EA70 008:973 JLINK_ReadReg(R15 (PC))  returns 0x0800B06E (0000ms, 0980ms total)
T1EA70 008:973 JLINK_ReadReg(XPSR)  returns 0x81000000 (0000ms, 0980ms total)
T1EA70 008:973 JLINK_ClrBPEx(BPHandle = 0x00000003)  returns 0x00 (0000ms, 0980ms total)
T1EA70 008:973 JLINK_ReadMemU32(0xE000ED30, 0x0001 Items, ...) -- CPU_ReadMem(4 bytes @ 0xE000ED30) - Data: 01 00 00 00  returns 0x01 (0001ms, 0981ms total)
T1EA70 008:974 JLINK_ReadMemU32(0xE0001028, 0x0001 Items, ...) -- CPU_ReadMem(4 bytes @ 0xE0001028) - Data: 00 00 00 00  returns 0x01 (0001ms, 0982ms total)
T1EA70 008:975 JLINK_ReadMemU32(0xE0001038, 0x0001 Items, ...) -- CPU_ReadMem(4 bytes @ 0xE0001038) - Data: 00 02 00 00  returns 0x01 (0000ms, 0982ms total)
T1EA70 008:975 JLINK_ReadMemU32(0xE0001048, 0x0001 Items, ...) -- CPU_ReadMem(4 bytes @ 0xE0001048) - Data: 00 00 00 00  returns 0x01 (0001ms, 0983ms total)
T1EA70 008:976 JLINK_ReadMemU32(0xE0001058, 0x0001 Items, ...) -- CPU_ReadMem(4 bytes @ 0xE0001058) - Data: 00 00 00 00  returns 0x01 (0001ms, 0984ms total)
T1EA70 008:978 JLINK_ReadReg(R0)  returns 0x00000000 (0000ms, 0984ms total)
T1EA70 008:978 JLINK_ReadReg(R1)  returns 0x2000115C (0000ms, 0984ms total)
T1EA70 008:978 JLINK_ReadReg(R2)  returns 0x00000000 (0000ms, 0984ms total)
T1EA70 008:978 JLINK_ReadReg(R3)  returns 0x00008000 (0000ms, 0984ms total)
T1EA70 008:978 JLINK_ReadReg(R4)  returns 0x000000C8 (0000ms, 0984ms total)
T1EA70 008:978 JLINK_ReadReg(R5)  returns 0x08070A64 (0000ms, 0984ms total)
T1EA70 008:978 JLINK_ReadReg(R6)  returns 0x00000000 (0000ms, 0984ms total)
T1EA70 008:978 JLINK_ReadReg(R7)  returns 0x00000000 (0001ms, 0985ms total)
T1EA70 008:979 JLINK_ReadReg(R8)  returns 0x00000000 (0000ms, 0985ms total)
T1EA70 008:979 JLINK_ReadReg(R9)  returns 0x00000000 (0000ms, 0985ms total)
T1EA70 008:979 JLINK_ReadReg(R10)  returns 0x00000000 (0000ms, 0985ms total)
T1EA70 008:979 JLINK_ReadReg(R11)  returns 0x00000000 (0000ms, 0985ms total)
T1EA70 008:979 JLINK_ReadReg(R12)  returns 0x00000019 (0000ms, 0985ms total)
T1EA70 008:979 JLINK_ReadReg(R13 (SP))  returns 0x20009B88 (0000ms, 0985ms total)
T1EA70 008:979 JLINK_ReadReg(R14)  returns 0x0800B06F (0000ms, 0985ms total)
T1EA70 008:979 JLINK_ReadReg(R15 (PC))  returns 0x0800B06E (0000ms, 0985ms total)
T1EA70 008:979 JLINK_ReadReg(XPSR)  returns 0x81000000 (0001ms, 0986ms total)
T1EA70 008:980 JLINK_ReadReg(MSP)  returns 0x20009B88 (0000ms, 0986ms total)
T1EA70 008:980 JLINK_ReadReg(PSP)  returns 0x00000000 (0000ms, 0986ms total)
T1EA70 008:980 JLINK_ReadReg(CFBP)  returns 0x00000000 (0000ms, 0986ms total)
T1EA70 008:980 JLINK_ReadReg(FPSCR)  returns 0x00000000 (0003ms, 0989ms total)
T1EA70 008:983 JLINK_ReadReg(FPS0)  returns 0x00000000 (0000ms, 0989ms total)
T1EA70 008:983 JLINK_ReadReg(FPS1)  returns 0x00000000 (0000ms, 0989ms total)
T1EA70 008:983 JLINK_ReadReg(FPS2)  returns 0x00000000 (0000ms, 0989ms total)
T1EA70 008:983 JLINK_ReadReg(FPS3)  returns 0x00000000 (0000ms, 0989ms total)
T1EA70 008:983 JLINK_ReadReg(FPS4)  returns 0x00000000 (0000ms, 0989ms total)
T1EA70 008:983 JLINK_ReadReg(FPS5)  returns 0x00000000 (0000ms, 0989ms total)
T1EA70 008:983 JLINK_ReadReg(FPS6)  returns 0x00000000 (0000ms, 0989ms total)
T1EA70 008:983 JLINK_ReadReg(FPS7)  returns 0x00000000 (0001ms, 0990ms total)
T1EA70 008:984 JLINK_ReadReg(FPS8)  returns 0x00000000 (0000ms, 0990ms total)
T1EA70 008:984 JLINK_ReadReg(FPS9)  returns 0x00000000 (0000ms, 0990ms total)
T1EA70 008:984 JLINK_ReadReg(FPS10)  returns 0x00000000 (0000ms, 0990ms total)
T1EA70 008:984 JLINK_ReadReg(FPS11)  returns 0x00000000 (0000ms, 0990ms total)
T1EA70 008:984 JLINK_ReadReg(FPS12)  returns 0x00000000 (0000ms, 0990ms total)
T1EA70 008:984 JLINK_ReadReg(FPS13)  returns 0x00000000 (0000ms, 0990ms total)
T1EA70 008:984 JLINK_ReadReg(FPS14)  returns 0x00000000 (0000ms, 0990ms total)
T1EA70 008:984 JLINK_ReadReg(FPS15)  returns 0x00000000 (0000ms, 0990ms total)
T1EA70 008:984 JLINK_ReadReg(FPS16)  returns 0x00000000 (0001ms, 0991ms total)
T1EA70 008:985 JLINK_ReadReg(FPS17)  returns 0x00000000 (0000ms, 0991ms total)
T1EA70 008:985 JLINK_ReadReg(FPS18)  returns 0x00000000 (0000ms, 0991ms total)
T1EA70 008:985 JLINK_ReadReg(FPS19)  returns 0x00000000 (0000ms, 0991ms total)
T1EA70 008:985 JLINK_ReadReg(FPS20)  returns 0x00000000 (0000ms, 0991ms total)
T1EA70 008:985 JLINK_ReadReg(FPS21)  returns 0x00000000 (0000ms, 0991ms total)
T1EA70 008:985 JLINK_ReadReg(FPS22)  returns 0x00000000 (0000ms, 0991ms total)
T1EA70 008:985 JLINK_ReadReg(FPS23)  returns 0x00000000 (0000ms, 0991ms total)
T1EA70 008:985 JLINK_ReadReg(FPS24)  returns 0x00000000 (0000ms, 0991ms total)
T1EA70 008:985 JLINK_ReadReg(FPS25)  returns 0x00000000 (0001ms, 0992ms total)
T1EA70 008:986 JLINK_ReadReg(FPS26)  returns 0x00000000 (0000ms, 0992ms total)
T1EA70 008:986 JLINK_ReadReg(FPS27)  returns 0x00000000 (0000ms, 0992ms total)
T1EA70 008:986 JLINK_ReadReg(FPS28)  returns 0x00000000 (0000ms, 0992ms total)
T1EA70 008:986 JLINK_ReadReg(FPS29)  returns 0x00000000 (0000ms, 0992ms total)
T1EA70 008:986 JLINK_ReadReg(FPS30)  returns 0x00000000 (0000ms, 0992ms total)
T1EA70 008:986 JLINK_ReadReg(FPS31)  returns 0x00000000 (0000ms, 0992ms total)
T0E4C 009:019 JLINK_ReadMem (0x0800B06E, 0x0002 Bytes, ...) -- CPU_ReadMem(64 bytes @ 0x0800B040) -- Updating C cache (64 bytes @ 0x0800B040) -- Read from C cache (2 bytes @ 0x0800B06E) - Data: 10 BD  returns 0x00 (0001ms, 0993ms total)
T0E4C 009:020 JLINK_ReadMem (0x0800B070, 0x003C Bytes, ...) -- CPU_ReadMem(64 bytes @ 0x0800B080) -- Updating C cache (64 bytes @ 0x0800B080) -- Read from C cache (60 bytes @ 0x0800B070) - Data: 10 B5 01 21 40 F2 FF 10 FB F7 50 FC 01 21 40 F2 ...  returns 0x00 (0001ms, 0994ms total)
T1EA70 010:588 JLINK_SetBPEx(Addr = 0x080075BE, Type = 0xFFFFFFF2)  returns 0x00000004 (0001ms, 0995ms total)
T1EA70 010:589 JLINK_Go() -- CPU_WriteMem(4 bytes @ 0xE0002000) (0002ms, 0997ms total)
T1EA70 010:692 JLINK_IsHalted()  returns FALSE (0001ms, 0999ms total)
T1EA70 010:793 JLINK_IsHalted()  returns FALSE (0001ms, 0999ms total)
T1EA70 010:894 JLINK_IsHalted()  returns FALSE (0001ms, 0999ms total)
T1EA70 010:995 JLINK_IsHalted()  returns FALSE (0001ms, 0999ms total)
T1EA70 011:096 JLINK_IsHalted()  returns FALSE (0001ms, 0999ms total)
T1EA70 011:198 JLINK_IsHalted()  returns FALSE (0001ms, 0999ms total)
T1EA70 011:299 JLINK_IsHalted()  returns FALSE (0001ms, 0999ms total)
T1EA70 011:400 JLINK_IsHalted()  returns FALSE (0001ms, 0999ms total)
T1EA70 011:501 JLINK_IsHalted()  returns FALSE (0001ms, 0999ms total)
T1EA70 011:602 JLINK_IsHalted()  returns FALSE (0001ms, 0999ms total)
T1EA70 011:703 JLINK_IsHalted()  returns FALSE (0001ms, 0999ms total)
T1EA70 011:804 JLINK_IsHalted()  returns FALSE (0000ms, 0998ms total)
T1EA70 011:905 JLINK_IsHalted()  returns FALSE (0001ms, 0999ms total)
T1EA70 012:006 JLINK_Halt()  returns 0x00 (0002ms, 1000ms total)
T1EA70 012:008 JLINK_IsHalted()  returns TRUE (0000ms, 1000ms total)
T1EA70 012:008 JLINK_IsHalted()  returns TRUE (0000ms, 1000ms total)
T1EA70 012:008 JLINK_IsHalted()  returns TRUE (0000ms, 1000ms total)
T1EA70 012:008 JLINK_ReadReg(R15 (PC))  returns 0x080072CC (0000ms, 1000ms total)
T1EA70 012:008 JLINK_ReadReg(XPSR)  returns 0x61000000 (0001ms, 1001ms total)
T1EA70 012:009 JLINK_ClrBPEx(BPHandle = 0x00000004)  returns 0x00 (0000ms, 1001ms total)
T1EA70 012:009 JLINK_ReadMemU32(0xE000ED30, 0x0001 Items, ...) -- CPU_ReadMem(4 bytes @ 0xE000ED30) - Data: 01 00 00 00  returns 0x01 (0001ms, 1002ms total)
T1EA70 012:010 JLINK_ReadMemU32(0xE0001028, 0x0001 Items, ...) -- CPU_ReadMem(4 bytes @ 0xE0001028) - Data: 00 00 00 00  returns 0x01 (0001ms, 1003ms total)
T1EA70 012:011 JLINK_ReadMemU32(0xE0001038, 0x0001 Items, ...) -- CPU_ReadMem(4 bytes @ 0xE0001038) - Data: 00 02 00 00  returns 0x01 (0001ms, 1004ms total)
T1EA70 012:012 JLINK_ReadMemU32(0xE0001048, 0x0001 Items, ...) -- CPU_ReadMem(4 bytes @ 0xE0001048) - Data: 00 00 00 00  returns 0x01 (0000ms, 1004ms total)
T1EA70 012:013 JLINK_ReadMemU32(0xE0001058, 0x0001 Items, ...) -- CPU_ReadMem(4 bytes @ 0xE0001058) - Data: 00 00 00 00  returns 0x01 (0000ms, 1005ms total)
T1EA70 012:014 JLINK_ReadReg(R0)  returns 0x00000000 (0000ms, 1005ms total)
T1EA70 012:014 JLINK_ReadReg(R1)  returns 0x00000001 (0000ms, 1005ms total)
T1EA70 012:014 JLINK_ReadReg(R2)  returns 0x40013000 (0000ms, 1005ms total)
T1EA70 012:014 JLINK_ReadReg(R3)  returns 0x00000000 (0000ms, 1005ms total)
T1EA70 012:014 JLINK_ReadReg(R4)  returns 0x00000049 (0000ms, 1005ms total)
T1EA70 012:014 JLINK_ReadReg(R5)  returns 0x00000049 (0001ms, 1006ms total)
T1EA70 012:015 JLINK_ReadReg(R6)  returns 0x0000FFFF (0000ms, 1006ms total)
T1EA70 012:015 JLINK_ReadReg(R7)  returns 0x00000006 (0000ms, 1006ms total)
T1EA70 012:015 JLINK_ReadReg(R8)  returns 0x0800CF88 (0000ms, 1006ms total)
T1EA70 012:015 JLINK_ReadReg(R9)  returns 0x08005761 (0000ms, 1006ms total)
T1EA70 012:015 JLINK_ReadReg(R10)  returns 0x00000023 (0000ms, 1006ms total)
T1EA70 012:015 JLINK_ReadReg(R11)  returns 0x0000000E (0000ms, 1006ms total)
T1EA70 012:015 JLINK_ReadReg(R12)  returns 0x00000019 (0000ms, 1006ms total)
T1EA70 012:016 JLINK_ReadReg(R13 (SP))  returns 0x20009650 (0000ms, 1007ms total)
T1EA70 012:016 JLINK_ReadReg(R14)  returns 0x080072D5 (0000ms, 1007ms total)
T1EA70 012:016 JLINK_ReadReg(R15 (PC))  returns 0x080072CC (0000ms, 1007ms total)
T1EA70 012:016 JLINK_ReadReg(XPSR)  returns 0x61000000 (0000ms, 1007ms total)
T1EA70 012:016 JLINK_ReadReg(MSP)  returns 0x20009650 (0000ms, 1007ms total)
T1EA70 012:016 JLINK_ReadReg(PSP)  returns 0x00000000 (0000ms, 1007ms total)
T1EA70 012:016 JLINK_ReadReg(CFBP)  returns 0x00000000 (0000ms, 1007ms total)
T1EA70 012:016 JLINK_ReadReg(FPSCR)  returns 0x00000000 (0003ms, 1010ms total)
T1EA70 012:019 JLINK_ReadReg(FPS0)  returns 0x00000000 (0000ms, 1010ms total)
T1EA70 012:019 JLINK_ReadReg(FPS1)  returns 0x00000000 (0000ms, 1010ms total)
T1EA70 012:019 JLINK_ReadReg(FPS2)  returns 0x00000000 (0000ms, 1010ms total)
T1EA70 012:019 JLINK_ReadReg(FPS3)  returns 0x00000000 (0001ms, 1011ms total)
T1EA70 012:020 JLINK_ReadReg(FPS4)  returns 0x00000000 (0000ms, 1011ms total)
T1EA70 012:020 JLINK_ReadReg(FPS5)  returns 0x00000000 (0000ms, 1011ms total)
T1EA70 012:020 JLINK_ReadReg(FPS6)  returns 0x00000000 (0000ms, 1011ms total)
T1EA70 012:020 JLINK_ReadReg(FPS7)  returns 0x00000000 (0000ms, 1011ms total)
T1EA70 012:020 JLINK_ReadReg(FPS8)  returns 0x00000000 (0000ms, 1011ms total)
T1EA70 012:020 JLINK_ReadReg(FPS9)  returns 0x00000000 (0000ms, 1011ms total)
T1EA70 012:020 JLINK_ReadReg(FPS10)  returns 0x00000000 (0000ms, 1011ms total)
T1EA70 012:020 JLINK_ReadReg(FPS11)  returns 0x00000000 (0000ms, 1011ms total)
T1EA70 012:020 JLINK_ReadReg(FPS12)  returns 0x00000000 (0001ms, 1012ms total)
T1EA70 012:021 JLINK_ReadReg(FPS13)  returns 0x00000000 (0000ms, 1012ms total)
T1EA70 012:021 JLINK_ReadReg(FPS14)  returns 0x00000000 (0000ms, 1012ms total)
T1EA70 012:021 JLINK_ReadReg(FPS15)  returns 0x00000000 (0000ms, 1012ms total)
T1EA70 012:021 JLINK_ReadReg(FPS16)  returns 0x00000000 (0000ms, 1012ms total)
T1EA70 012:021 JLINK_ReadReg(FPS17)  returns 0x00000000 (0000ms, 1012ms total)
T1EA70 012:021 JLINK_ReadReg(FPS18)  returns 0x00000000 (0000ms, 1012ms total)
T1EA70 012:021 JLINK_ReadReg(FPS19)  returns 0x00000000 (0000ms, 1012ms total)
T1EA70 012:021 JLINK_ReadReg(FPS20)  returns 0x00000000 (0000ms, 1012ms total)
T1EA70 012:021 JLINK_ReadReg(FPS21)  returns 0x00000000 (0000ms, 1012ms total)
T1EA70 012:022 JLINK_ReadReg(FPS22)  returns 0x00000000 (0000ms, 1013ms total)
T1EA70 012:022 JLINK_ReadReg(FPS23)  returns 0x00000000 (0000ms, 1013ms total)
T1EA70 012:022 JLINK_ReadReg(FPS24)  returns 0x00000000 (0000ms, 1013ms total)
T1EA70 012:022 JLINK_ReadReg(FPS25)  returns 0x00000000 (0000ms, 1013ms total)
T1EA70 012:022 JLINK_ReadReg(FPS26)  returns 0x00000000 (0000ms, 1013ms total)
T1EA70 012:022 JLINK_ReadReg(FPS27)  returns 0x00000000 (0000ms, 1013ms total)
T1EA70 012:022 JLINK_ReadReg(FPS28)  returns 0x00000000 (0000ms, 1013ms total)
T1EA70 012:022 JLINK_ReadReg(FPS29)  returns 0x00000000 (0000ms, 1013ms total)
T1EA70 012:022 JLINK_ReadReg(FPS30)  returns 0x00000000 (0001ms, 1014ms total)
T1EA70 012:023 JLINK_ReadReg(FPS31)  returns 0x00000000 (0000ms, 1014ms total)
T0E4C 012:054 JLINK_ReadMem (0x080072CC, 0x003C Bytes, ...) -- CPU_ReadMem(128 bytes @ 0x080072C0) -- Updating C cache (128 bytes @ 0x080072C0) -- Read from C cache (60 bytes @ 0x080072CC) - Data: 01 21 05 48 FF F7 98 FF 00 28 F9 D0 02 48 FF F7 ...  returns 0x00 (0002ms, 1016ms total)
T0E4C 014:528 JLINK_ReadMem (0x2000965C, 0x0004 Bytes, ...) -- CPU_ReadMem(64 bytes @ 0x20009640) -- Updating C cache (64 bytes @ 0x20009640) -- Read from C cache (4 bytes @ 0x2000965C) - Data: DF 67 00 08  returns 0x00 (0002ms, 1018ms total)
T1EA70 014:533 JLINK_SetBPEx(Addr = 0x080067DE, Type = 0xFFFFFFF2)  returns 0x00000005 (0000ms, 1018ms total)
T1EA70 014:533 JLINK_SetBPEx(Addr = 0x080075BE, Type = 0xFFFFFFF2)  returns 0x00000006 (0000ms, 1018ms total)
T1EA70 014:533 JLINK_Go() -- CPU_WriteMem(4 bytes @ 0xE0002000) -- CPU_WriteMem(4 bytes @ 0xE0002000) -- CPU_WriteMem(4 bytes @ 0xE0002008) -- CPU_WriteMem(4 bytes @ 0xE000200C) (0005ms, 1023ms total)
T1EA70 014:638 JLINK_IsHalted()  returns TRUE (0002ms, 1025ms total)
T1EA70 014:640 JLINK_Halt()  returns 0x00 (0000ms, 1023ms total)
T1EA70 014:640 JLINK_IsHalted()  returns TRUE (0001ms, 1024ms total)
T1EA70 014:641 JLINK_IsHalted()  returns TRUE (0000ms, 1023ms total)
T1EA70 014:641 JLINK_IsHalted()  returns TRUE (0000ms, 1023ms total)
T1EA70 014:641 JLINK_ReadReg(R15 (PC))  returns 0x080067DE (0000ms, 1023ms total)
T1EA70 014:641 JLINK_ReadReg(XPSR)  returns 0x21000000 (0000ms, 1023ms total)
T1EA70 014:641 JLINK_ClrBPEx(BPHandle = 0x00000005)  returns 0x00 (0000ms, 1023ms total)
T1EA70 014:641 JLINK_ClrBPEx(BPHandle = 0x00000006)  returns 0x00 (0000ms, 1023ms total)
T1EA70 014:641 JLINK_ReadMemU32(0xE000ED30, 0x0001 Items, ...) -- CPU_ReadMem(4 bytes @ 0xE000ED30) - Data: 03 00 00 00  returns 0x01 (0001ms, 1024ms total)
T1EA70 014:642 JLINK_ReadMemU32(0xE0001028, 0x0001 Items, ...) -- CPU_ReadMem(4 bytes @ 0xE0001028) - Data: 00 00 00 00  returns 0x01 (0001ms, 1025ms total)
T1EA70 014:643 JLINK_ReadMemU32(0xE0001038, 0x0001 Items, ...) -- CPU_ReadMem(4 bytes @ 0xE0001038) - Data: 00 02 00 00  returns 0x01 (0001ms, 1026ms total)
T1EA70 014:644 JLINK_ReadMemU32(0xE0001048, 0x0001 Items, ...) -- CPU_ReadMem(4 bytes @ 0xE0001048) - Data: 00 00 00 00  returns 0x01 (0001ms, 1027ms total)
T1EA70 014:645 JLINK_ReadMemU32(0xE0001058, 0x0001 Items, ...) -- CPU_ReadMem(4 bytes @ 0xE0001058) - Data: 00 00 00 00  returns 0x01 (0001ms, 1028ms total)
T1EA70 014:646 JLINK_ReadReg(R0)  returns 0x000000FF (0001ms, 1029ms total)
T1EA70 014:647 JLINK_ReadReg(R1)  returns 0x40013000 (0000ms, 1029ms total)
T1EA70 014:647 JLINK_ReadReg(R2)  returns 0x40013000 (0000ms, 1029ms total)
T1EA70 014:647 JLINK_ReadReg(R3)  returns 0x00000001 (0000ms, 1029ms total)
T1EA70 014:647 JLINK_ReadReg(R4)  returns 0x00000049 (0000ms, 1029ms total)
T1EA70 014:647 JLINK_ReadReg(R5)  returns 0x00000049 (0000ms, 1029ms total)
T1EA70 014:647 JLINK_ReadReg(R6)  returns 0x0000FFFF (0000ms, 1029ms total)
T1EA70 014:647 JLINK_ReadReg(R7)  returns 0x00000006 (0000ms, 1029ms total)
T1EA70 014:647 JLINK_ReadReg(R8)  returns 0x0800CF88 (0000ms, 1029ms total)
T1EA70 014:647 JLINK_ReadReg(R9)  returns 0x08005761 (0001ms, 1030ms total)
T1EA70 014:648 JLINK_ReadReg(R10)  returns 0x00000023 (0000ms, 1030ms total)
T1EA70 014:648 JLINK_ReadReg(R11)  returns 0x0000000E (0000ms, 1030ms total)
T1EA70 014:648 JLINK_ReadReg(R12)  returns 0x00000019 (0000ms, 1030ms total)
T1EA70 014:648 JLINK_ReadReg(R13 (SP))  returns 0x20009660 (0000ms, 1030ms total)
T1EA70 014:648 JLINK_ReadReg(R14)  returns 0x080072DF (0000ms, 1030ms total)
T1EA70 014:648 JLINK_ReadReg(R15 (PC))  returns 0x080067DE (0000ms, 1030ms total)
T1EA70 014:648 JLINK_ReadReg(XPSR)  returns 0x21000000 (0001ms, 1031ms total)
T1EA70 014:649 JLINK_ReadReg(MSP)  returns 0x20009660 (0000ms, 1031ms total)
T1EA70 014:649 JLINK_ReadReg(PSP)  returns 0x00000000 (0000ms, 1031ms total)
T1EA70 014:649 JLINK_ReadReg(CFBP)  returns 0x00000000 (0000ms, 1031ms total)
T1EA70 014:649 JLINK_ReadReg(FPSCR)  returns 0x00000000 (0003ms, 1034ms total)
T1EA70 014:652 JLINK_ReadReg(FPS0)  returns 0x00000000 (0000ms, 1034ms total)
T1EA70 014:652 JLINK_ReadReg(FPS1)  returns 0x00000000 (0000ms, 1034ms total)
T1EA70 014:652 JLINK_ReadReg(FPS2)  returns 0x00000000 (0000ms, 1034ms total)
T1EA70 014:652 JLINK_ReadReg(FPS3)  returns 0x00000000 (0000ms, 1034ms total)
T1EA70 014:652 JLINK_ReadReg(FPS4)  returns 0x00000000 (0000ms, 1034ms total)
T1EA70 014:652 JLINK_ReadReg(FPS5)  returns 0x00000000 (0000ms, 1034ms total)
T1EA70 014:652 JLINK_ReadReg(FPS6)  returns 0x00000000 (0000ms, 1034ms total)
T1EA70 014:652 JLINK_ReadReg(FPS7)  returns 0x00000000 (0000ms, 1034ms total)
T1EA70 014:653 JLINK_ReadReg(FPS8)  returns 0x00000000 (0000ms, 1034ms total)
T1EA70 014:653 JLINK_ReadReg(FPS9)  returns 0x00000000 (0000ms, 1034ms total)
T1EA70 014:653 JLINK_ReadReg(FPS10)  returns 0x00000000 (0000ms, 1034ms total)
T1EA70 014:653 JLINK_ReadReg(FPS11)  returns 0x00000000 (0000ms, 1034ms total)
T1EA70 014:653 JLINK_ReadReg(FPS12)  returns 0x00000000 (0000ms, 1034ms total)
T1EA70 014:653 JLINK_ReadReg(FPS13)  returns 0x00000000 (0000ms, 1034ms total)
T1EA70 014:653 JLINK_ReadReg(FPS14)  returns 0x00000000 (0000ms, 1034ms total)
T1EA70 014:653 JLINK_ReadReg(FPS15)  returns 0x00000000 (0000ms, 1034ms total)
T1EA70 014:653 JLINK_ReadReg(FPS16)  returns 0x00000000 (0000ms, 1034ms total)
T1EA70 014:653 JLINK_ReadReg(FPS17)  returns 0x00000000 (0001ms, 1035ms total)
T1EA70 014:654 JLINK_ReadReg(FPS18)  returns 0x00000000 (0000ms, 1035ms total)
T1EA70 014:654 JLINK_ReadReg(FPS19)  returns 0x00000000 (0000ms, 1035ms total)
T1EA70 014:654 JLINK_ReadReg(FPS20)  returns 0x00000000 (0000ms, 1035ms total)
T1EA70 014:654 JLINK_ReadReg(FPS21)  returns 0x00000000 (0000ms, 1035ms total)
T1EA70 014:654 JLINK_ReadReg(FPS22)  returns 0x00000000 (0000ms, 1035ms total)
T1EA70 014:654 JLINK_ReadReg(FPS23)  returns 0x00000000 (0000ms, 1035ms total)
T1EA70 014:654 JLINK_ReadReg(FPS24)  returns 0x00000000 (0000ms, 1035ms total)
T1EA70 014:654 JLINK_ReadReg(FPS25)  returns 0x00000000 (0000ms, 1035ms total)
T1EA70 014:654 JLINK_ReadReg(FPS26)  returns 0x00000000 (0000ms, 1035ms total)
T1EA70 014:654 JLINK_ReadReg(FPS27)  returns 0x00000000 (0001ms, 1036ms total)
T1EA70 014:655 JLINK_ReadReg(FPS28)  returns 0x00000000 (0000ms, 1036ms total)
T1EA70 014:655 JLINK_ReadReg(FPS29)  returns 0x00000000 (0000ms, 1036ms total)
T1EA70 014:655 JLINK_ReadReg(FPS30)  returns 0x00000000 (0000ms, 1036ms total)
T1EA70 014:655 JLINK_ReadReg(FPS31)  returns 0x00000000 (0000ms, 1036ms total)
T0E4C 016:464 JLINK_ReadMem (0x20009664, 0x0004 Bytes, ...) -- CPU_ReadMem(64 bytes @ 0x20009640) -- Updating C cache (64 bytes @ 0x20009640) -- Read from C cache (4 bytes @ 0x20009664) - Data: 0B 69 00 08  returns 0x00 (0003ms, 1039ms total)
T1EA70 016:469 JLINK_SetBPEx(Addr = 0x0800690A, Type = 0xFFFFFFF2)  returns 0x00000007 (0000ms, 1039ms total)
T1EA70 016:469 JLINK_SetBPEx(Addr = 0x080075BE, Type = 0xFFFFFFF2)  returns 0x00000008 (0000ms, 1039ms total)
T1EA70 016:469 JLINK_Go() -- CPU_WriteMem(4 bytes @ 0xE0002000) -- CPU_WriteMem(4 bytes @ 0xE0002000) -- CPU_WriteMem(4 bytes @ 0xE0002008) (0004ms, 1043ms total)
T1EA70 016:573 JLINK_IsHalted()  returns TRUE (0002ms, 1045ms total)
T1EA70 016:575 JLINK_Halt()  returns 0x00 (0000ms, 1043ms total)
T1EA70 016:575 JLINK_IsHalted()  returns TRUE (0000ms, 1043ms total)
T1EA70 016:575 JLINK_IsHalted()  returns TRUE (0000ms, 1043ms total)
T1EA70 016:575 JLINK_IsHalted()  returns TRUE (0000ms, 1043ms total)
T1EA70 016:575 JLINK_ReadReg(R15 (PC))  returns 0x0800690A (0001ms, 1044ms total)
T1EA70 016:576 JLINK_ReadReg(XPSR)  returns 0x21000000 (0000ms, 1044ms total)
T1EA70 016:576 JLINK_ClrBPEx(BPHandle = 0x00000007)  returns 0x00 (0000ms, 1044ms total)
T1EA70 016:576 JLINK_ClrBPEx(BPHandle = 0x00000008)  returns 0x00 (0000ms, 1044ms total)
T1EA70 016:576 JLINK_ReadMemU32(0xE000ED30, 0x0001 Items, ...) -- CPU_ReadMem(4 bytes @ 0xE000ED30) - Data: 03 00 00 00  returns 0x01 (0001ms, 1045ms total)
T1EA70 016:577 JLINK_ReadMemU32(0xE0001028, 0x0001 Items, ...) -- CPU_ReadMem(4 bytes @ 0xE0001028) - Data: 00 00 00 00  returns 0x01 (0001ms, 1046ms total)
T1EA70 016:578 JLINK_ReadMemU32(0xE0001038, 0x0001 Items, ...) -- CPU_ReadMem(4 bytes @ 0xE0001038) - Data: 00 02 00 00  returns 0x01 (0001ms, 1047ms total)
T1EA70 016:579 JLINK_ReadMemU32(0xE0001048, 0x0001 Items, ...) -- CPU_ReadMem(4 bytes @ 0xE0001048) - Data: 00 00 00 00  returns 0x01 (0001ms, 1048ms total)
T1EA70 016:580 JLINK_ReadMemU32(0xE0001058, 0x0001 Items, ...) -- CPU_ReadMem(4 bytes @ 0xE0001058) - Data: 00 00 00 00  returns 0x01 (0000ms, 1048ms total)
T1EA70 016:581 JLINK_ReadReg(R0)  returns 0x00000400 (0000ms, 1048ms total)
T1EA70 016:581 JLINK_ReadReg(R1)  returns 0x40022000 (0000ms, 1048ms total)
T1EA70 016:581 JLINK_ReadReg(R2)  returns 0x40013000 (0000ms, 1048ms total)
T1EA70 016:581 JLINK_ReadReg(R3)  returns 0x00000001 (0000ms, 1048ms total)
T1EA70 016:582 JLINK_ReadReg(R4)  returns 0x00000000 (0000ms, 1049ms total)
T1EA70 016:582 JLINK_ReadReg(R5)  returns 0x00000049 (0000ms, 1049ms total)
T1EA70 016:582 JLINK_ReadReg(R6)  returns 0x0000FFFF (0000ms, 1049ms total)
T1EA70 016:582 JLINK_ReadReg(R7)  returns 0x00000006 (0000ms, 1049ms total)
T1EA70 016:582 JLINK_ReadReg(R8)  returns 0x0800CF88 (0000ms, 1049ms total)
T1EA70 016:582 JLINK_ReadReg(R9)  returns 0x08005761 (0000ms, 1049ms total)
T1EA70 016:582 JLINK_ReadReg(R10)  returns 0x00000023 (0000ms, 1049ms total)
T1EA70 016:582 JLINK_ReadReg(R11)  returns 0x0000000E (0000ms, 1049ms total)
T1EA70 016:582 JLINK_ReadReg(R12)  returns 0x00000019 (0000ms, 1049ms total)
T1EA70 016:582 JLINK_ReadReg(R13 (SP))  returns 0x20009668 (0001ms, 1050ms total)
T1EA70 016:583 JLINK_ReadReg(R14)  returns 0x080072DF (0000ms, 1050ms total)
T1EA70 016:583 JLINK_ReadReg(R15 (PC))  returns 0x0800690A (0000ms, 1050ms total)
T1EA70 016:583 JLINK_ReadReg(XPSR)  returns 0x21000000 (0000ms, 1050ms total)
T1EA70 016:583 JLINK_ReadReg(MSP)  returns 0x20009668 (0000ms, 1050ms total)
T1EA70 016:583 JLINK_ReadReg(PSP)  returns 0x00000000 (0000ms, 1050ms total)
T1EA70 016:583 JLINK_ReadReg(CFBP)  returns 0x00000000 (0000ms, 1050ms total)
T1EA70 016:583 JLINK_ReadReg(FPSCR)  returns 0x00000000 (0003ms, 1053ms total)
T1EA70 016:586 JLINK_ReadReg(FPS0)  returns 0x00000000 (0000ms, 1053ms total)
T1EA70 016:586 JLINK_ReadReg(FPS1)  returns 0x00000000 (0000ms, 1053ms total)
T1EA70 016:586 JLINK_ReadReg(FPS2)  returns 0x00000000 (0000ms, 1053ms total)
T1EA70 016:586 JLINK_ReadReg(FPS3)  returns 0x00000000 (0000ms, 1053ms total)
T1EA70 016:586 JLINK_ReadReg(FPS4)  returns 0x00000000 (0000ms, 1053ms total)
T1EA70 016:586 JLINK_ReadReg(FPS5)  returns 0x00000000 (0000ms, 1053ms total)
T1EA70 016:586 JLINK_ReadReg(FPS6)  returns 0x00000000 (0001ms, 1054ms total)
T1EA70 016:587 JLINK_ReadReg(FPS7)  returns 0x00000000 (0000ms, 1054ms total)
T1EA70 016:587 JLINK_ReadReg(FPS8)  returns 0x00000000 (0000ms, 1054ms total)
T1EA70 016:587 JLINK_ReadReg(FPS9)  returns 0x00000000 (0000ms, 1054ms total)
T1EA70 016:587 JLINK_ReadReg(FPS10)  returns 0x00000000 (0000ms, 1054ms total)
T1EA70 016:587 JLINK_ReadReg(FPS11)  returns 0x00000000 (0000ms, 1054ms total)
T1EA70 016:587 JLINK_ReadReg(FPS12)  returns 0x00000000 (0000ms, 1054ms total)
T1EA70 016:587 JLINK_ReadReg(FPS13)  returns 0x00000000 (0000ms, 1054ms total)
T1EA70 016:587 JLINK_ReadReg(FPS14)  returns 0x00000000 (0000ms, 1054ms total)
T1EA70 016:587 JLINK_ReadReg(FPS15)  returns 0x00000000 (0001ms, 1055ms total)
T1EA70 016:588 JLINK_ReadReg(FPS16)  returns 0x00000000 (0000ms, 1055ms total)
T1EA70 016:588 JLINK_ReadReg(FPS17)  returns 0x00000000 (0000ms, 1055ms total)
T1EA70 016:588 JLINK_ReadReg(FPS18)  returns 0x00000000 (0000ms, 1055ms total)
T1EA70 016:588 JLINK_ReadReg(FPS19)  returns 0x00000000 (0000ms, 1055ms total)
T1EA70 016:588 JLINK_ReadReg(FPS20)  returns 0x00000000 (0000ms, 1055ms total)
T1EA70 016:588 JLINK_ReadReg(FPS21)  returns 0x00000000 (0000ms, 1055ms total)
T1EA70 016:588 JLINK_ReadReg(FPS22)  returns 0x00000000 (0000ms, 1055ms total)
T1EA70 016:588 JLINK_ReadReg(FPS23)  returns 0x00000000 (0000ms, 1055ms total)
T1EA70 016:588 JLINK_ReadReg(FPS24)  returns 0x00000000 (0000ms, 1055ms total)
T1EA70 016:589 JLINK_ReadReg(FPS25)  returns 0x00000000 (0000ms, 1055ms total)
T1EA70 016:589 JLINK_ReadReg(FPS26)  returns 0x00000000 (0000ms, 1055ms total)
T1EA70 016:589 JLINK_ReadReg(FPS27)  returns 0x00000000 (0000ms, 1055ms total)
T1EA70 016:589 JLINK_ReadReg(FPS28)  returns 0x00000000 (0000ms, 1055ms total)
T1EA70 016:589 JLINK_ReadReg(FPS29)  returns 0x00000000 (0000ms, 1055ms total)
T1EA70 016:589 JLINK_ReadReg(FPS30)  returns 0x00000000 (0000ms, 1055ms total)
T1EA70 016:589 JLINK_ReadReg(FPS31)  returns 0x00000000 (0000ms, 1055ms total)
T0E4C 017:633 JLINK_ReadMem (0x20009674, 0x0004 Bytes, ...) -- CPU_ReadMem(64 bytes @ 0x20009640) -- Updating C cache (64 bytes @ 0x20009640) -- Read from C cache (4 bytes @ 0x20009674) - Data: 75 65 00 08  returns 0x00 (0002ms, 1057ms total)
T1EA70 017:638 JLINK_SetBPEx(Addr = 0x08006574, Type = 0xFFFFFFF2)  returns 0x00000009 (0000ms, 1057ms total)
T1EA70 017:638 JLINK_SetBPEx(Addr = 0x080075BE, Type = 0xFFFFFFF2)  returns 0x0000000A (0000ms, 1057ms total)
T1EA70 017:638 JLINK_Go() -- CPU_WriteMem(4 bytes @ 0xE0002000) -- CPU_WriteMem(4 bytes @ 0xE0002000) -- CPU_WriteMem(4 bytes @ 0xE0002008) (0009ms, 1066ms total)
T1EA70 017:751 JLINK_IsHalted()  returns TRUE (0002ms, 1069ms total)
T1EA70 017:753 JLINK_Halt()  returns 0x00 (0000ms, 1067ms total)
T1EA70 017:753 JLINK_IsHalted()  returns TRUE (0000ms, 1067ms total)
T1EA70 017:753 JLINK_IsHalted()  returns TRUE (0001ms, 1068ms total)
T1EA70 017:754 JLINK_IsHalted()  returns TRUE (0000ms, 1067ms total)
T1EA70 017:754 JLINK_ReadReg(R15 (PC))  returns 0x08006574 (0000ms, 1067ms total)
T1EA70 017:754 JLINK_ReadReg(XPSR)  returns 0x61000000 (0000ms, 1067ms total)
T1EA70 017:754 JLINK_ClrBPEx(BPHandle = 0x00000009)  returns 0x00 (0000ms, 1067ms total)
T1EA70 017:754 JLINK_ClrBPEx(BPHandle = 0x0000000A)  returns 0x00 (0000ms, 1067ms total)
T1EA70 017:754 JLINK_ReadMemU32(0xE000ED30, 0x0001 Items, ...) -- CPU_ReadMem(4 bytes @ 0xE000ED30) - Data: 03 00 00 00  returns 0x01 (0001ms, 1068ms total)
T1EA70 017:755 JLINK_ReadMemU32(0xE0001028, 0x0001 Items, ...) -- CPU_ReadMem(4 bytes @ 0xE0001028) - Data: 00 00 00 00  returns 0x01 (0001ms, 1069ms total)
T1EA70 017:756 JLINK_ReadMemU32(0xE0001038, 0x0001 Items, ...) -- CPU_ReadMem(4 bytes @ 0xE0001038) - Data: 00 02 00 00  returns 0x01 (0001ms, 1070ms total)
T1EA70 017:757 JLINK_ReadMemU32(0xE0001048, 0x0001 Items, ...) -- CPU_ReadMem(4 bytes @ 0xE0001048) - Data: 00 00 00 00  returns 0x01 (0001ms, 1071ms total)
T1EA70 017:758 JLINK_ReadMemU32(0xE0001058, 0x0001 Items, ...) -- CPU_ReadMem(4 bytes @ 0xE0001058) - Data: 00 00 00 00  returns 0x01 (0001ms, 1072ms total)
T1EA70 017:759 JLINK_ReadReg(R0)  returns 0x00000000 (0000ms, 1072ms total)
T1EA70 017:759 JLINK_ReadReg(R1)  returns 0x20001208 (0000ms, 1072ms total)
T1EA70 017:759 JLINK_ReadReg(R2)  returns 0x40013000 (0001ms, 1073ms total)
T1EA70 017:760 JLINK_ReadReg(R3)  returns 0x00000001 (0000ms, 1073ms total)
T1EA70 017:760 JLINK_ReadReg(R4)  returns 0x0000019E (0000ms, 1073ms total)
T1EA70 017:760 JLINK_ReadReg(R5)  returns 0x000000EB (0000ms, 1073ms total)
T1EA70 017:760 JLINK_ReadReg(R6)  returns 0x0000FFFF (0000ms, 1073ms total)
T1EA70 017:760 JLINK_ReadReg(R7)  returns 0x00000006 (0000ms, 1073ms total)
T1EA70 017:760 JLINK_ReadReg(R8)  returns 0x0800CF88 (0000ms, 1073ms total)
T1EA70 017:760 JLINK_ReadReg(R9)  returns 0x08005761 (0000ms, 1073ms total)
T1EA70 017:760 JLINK_ReadReg(R10)  returns 0x00000023 (0000ms, 1073ms total)
T1EA70 017:760 JLINK_ReadReg(R11)  returns 0x0000000E (0001ms, 1074ms total)
T1EA70 017:761 JLINK_ReadReg(R12)  returns 0x00000019 (0000ms, 1074ms total)
T1EA70 017:761 JLINK_ReadReg(R13 (SP))  returns 0x20009678 (0000ms, 1074ms total)
T1EA70 017:761 JLINK_ReadReg(R14)  returns 0x080072DF (0000ms, 1074ms total)
T1EA70 017:761 JLINK_ReadReg(R15 (PC))  returns 0x08006574 (0000ms, 1074ms total)
T1EA70 017:761 JLINK_ReadReg(XPSR)  returns 0x61000000 (0000ms, 1074ms total)
T1EA70 017:761 JLINK_ReadReg(MSP)  returns 0x20009678 (0000ms, 1074ms total)
